
T2C24 000:506 SEGGER J-Link V4.96 Log File (0001ms, 0306ms total)
T2C24 000:506 DLL Compiled: Dec 22 2014 09:51:48 (0001ms, 0306ms total)
T2C24 000:506 Logging started @ 2016-02-03 22:21 (0001ms, 0306ms total)
T2C24 000:507 JLINK_SetWarnOutHandler(...) (0000ms, 0306ms total)
T2C24 000:507 JLINK_OpenEx(...)
Firmware: J-Link ARM-OB STM32 compiled Aug 22 2012 19:52:04
Hardware: V7.00
S/N: 20090928
Feature(s): RDI,FlashDL,FlashBP,JFlash,GDBFull  returns O.K. (0271ms, 0577ms total)
T2C24 000:778 JLINK_SetErrorOutHandler(...) (0000ms, 0577ms total)
T2C24 000:778 JLINK_ExecCommand("ProjectFile = "J:\·É¿Ø\ÁùÖá\ÄäÃûÐ¡ÁùÖáV1.0 Ô´Âë\JLinkSettings.ini"", ...)  returns 0x00 (0002ms, 0579ms total)
T2C24 000:793 JLINK_ExecCommand("Device = STM32F103C8", ...)Device "STM32F103C8" selected.  returns 0x00 (0002ms, 0582ms total)
T2C24 000:796 JLINK_ExecCommand("DisableConnectionTimeout", ...)  returns 0x01 (0000ms, 0582ms total)
T2C24 000:796 JLINK_GetHardwareVersion()  returns 0x11170 (0000ms, 0582ms total)
T2C24 000:796 JLINK_GetDLLVersion()  returns 49600 (0000ms, 0582ms total)
T2C24 000:796 JLINK_GetFirmwareString(...) (0000ms, 0582ms total)
T2C24 000:804 JLINK_GetDLLVersion()  returns 49600 (0000ms, 0582ms total)
T2C24 000:804 JLINK_GetCompileDateTime() (0000ms, 0582ms total)
T2C24 000:806 JLINK_GetFirmwareString(...) (0000ms, 0582ms total)
T2C24 000:808 JLINK_GetHardwareVersion()  returns 0x11170 (0000ms, 0582ms total)
T2C24 000:819 JLINK_TIF_Select(JLINKARM_TIF_SWD)  returns 0x00 (0001ms, 0583ms total)
T2C24 000:820 JLINK_SetSpeed(5000) (0000ms, 0583ms total)
T2C24 000:820 JLINK_GetId() >0x108 TIF>Found SWD-DP with ID 0x1BA01477 >0x0D TIF> >0x28 TIF> >0x0D TIF> >0x28 TIF> >0x0D TIF> >0x21 TIF> >0x0D TIF> >0x28 TIF> >0x0D TIF> >0x28 TIF> >0x0D TIF> >0x28 TIF> >0x0D TIF> >0x21 TIF> >0x0D TIF> >0x21 TIF> >0x0D TIF> >0x28 TIF> >0x0D TIF> >0x21 TIF> >0x0D TIF> >0x21 TIF> >0x0D TIF> >0x28 TIF> >0x0D TIF> >0x28 TIF> >0x108 TIF>Found SWD-DP with ID 0x1BA01477 >0x0D TIF> >0x21 TIF> >0x0D TIF> >0x28 TIF> >0x0D TIF> >0x28 TIF> >0x0D TIF> >0x21 TIF> >0x0D TIF> >0x28 TIF>
 >0x0D TIF> >0x21 TIF> >0x0D TIF> >0x21 TIF> >0x0D TIF> >0x21 TIF> >0x0D TIF> >0x21 TIF> >0x0D TIF> >0x28 TIF> >0x0D TIF> >0x28 TIF> >0x0D TIF> >0x21 TIF> >0x0D TIF> >0x28 TIF> >0x0D TIF> >0x28 TIF> >0x0D TIF> >0x28 TIF> >0x0D TIF> >0x21 TIF> >0x0D TIF> >0x21 TIF> >0x0D TIF> >0x28 TIF> >0x0D TIF> >0x21 TIF> >0x0D TIF> >0x21 TIF>Found Cortex-M3 r1p1, Little endian. -- CPU_WriteMem(4 bytes @ 0xE0002000) -- CPU_ReadMem(4 bytes @ 0xE000EDF0) -- CPU_WriteMem(4 bytes @ 0xE000EDF0)
 -- CPU_ReadMem(4 bytes @ 0xE0002000)FPUnit: 6 code (BP) slots and 2 literal slots -- CPU_ReadMem(4 bytes @ 0xE000EDFC) -- CPU_WriteMem(4 bytes @ 0xE000EDFC) -- CPU_ReadMem(4 bytes @ 0xE0001000) -- CPU_WriteMem(4 bytes @ 0xE0001000) -- CPU_ReadMem(4 bytes @ 0xE000ED88) -- CPU_WriteMem(4 bytes @ 0xE000ED88) -- CPU_ReadMem(4 bytes @ 0xE000ED88) -- CPU_WriteMem(4 bytes @ 0xE000ED88) -- CPU_ReadMem(4 bytes @ 0xE00FF010)TPIU fitted. -- CPU_ReadMem(4 bytes @ 0xE00FF014) -- CPU_ReadMem(4 bytes @ 0xE00FF018)
 >0x0D TIF> >0x21 TIF>  returns 0x1BA01477 (0078ms, 0661ms total)
T2C24 000:898 JLINK_GetDLLVersion()  returns 49600 (0000ms, 0661ms total)
T2C24 000:898 JLINK_CORE_GetFound()  returns 0x30000FF (0000ms, 0661ms total)
T2C24 000:898 JLINK_GetDebugInfo(0x100) -- Value=0xE00FF003  returns 0x00 (0000ms, 0661ms total)
T2C24 000:906 JLINK_ReadMem (0xE00FF000, 0x0020 Bytes, ...) -- CPU is running -- CPU_ReadMem(32 bytes @ 0xE00FF000) - Data: 03 F0 F0 FF 03 20 F0 FF 03 30 F0 FF 03 10 F0 FF ...  returns 0x00 (0001ms, 0662ms total)
T2C24 000:907 JLINK_ReadMem (0xE000EFF0, 0x0010 Bytes, ...) -- CPU is running -- CPU_ReadMem(16 bytes @ 0xE000EFF0) - Data: 0D 00 00 00 E0 00 00 00 05 00 00 00 B1 00 00 00  returns 0x00 (0001ms, 0663ms total)
T2C24 000:908 JLINK_ReadMem (0xE000EFD0, 0x0020 Bytes, ...) -- CPU is running -- CPU_ReadMem(32 bytes @ 0xE000EFD0) - Data: 04 00 00 00 00 00 00 00 00 00 00 00 00 00 00 00 ...  returns 0x00 (0001ms, 0664ms total)
T2C24 000:909 JLINK_ReadMem (0xE0001FF0, 0x0010 Bytes, ...) -- CPU is running -- CPU_ReadMem(16 bytes @ 0xE0001FF0) - Data: 0D 00 00 00 E0 00 00 00 05 00 00 00 B1 00 00 00  returns 0x00 (0001ms, 0665ms total)
T2C24 000:910 JLINK_ReadMem (0xE0001FD0, 0x0020 Bytes, ...) -- CPU is running -- CPU_ReadMem(32 bytes @ 0xE0001FD0) - Data: 04 00 00 00 00 00 00 00 00 00 00 00 00 00 00 00 ...  returns 0x00 (0001ms, 0666ms total)
T2C24 000:911 JLINK_ReadMem (0xE0002FF0, 0x0010 Bytes, ...) -- CPU is running -- CPU_ReadMem(16 bytes @ 0xE0002FF0) - Data: 0D 00 00 00 E0 00 00 00 05 00 00 00 B1 00 00 00  returns 0x00 (0001ms, 0667ms total)
T2C24 000:912 JLINK_ReadMem (0xE0002FD0, 0x0020 Bytes, ...) -- CPU is running -- CPU_ReadMem(32 bytes @ 0xE0002FD0) - Data: 04 00 00 00 00 00 00 00 00 00 00 00 00 00 00 00 ...  returns 0x00 (0001ms, 0668ms total)
T2C24 000:913 JLINK_ReadMem (0xE0000FF0, 0x0010 Bytes, ...) -- CPU is running -- CPU_ReadMem(16 bytes @ 0xE0000FF0) - Data: 0D 00 00 00 E0 00 00 00 05 00 00 00 B1 00 00 00  returns 0x00 (0001ms, 0669ms total)
T2C24 000:914 JLINK_ReadMem (0xE0000FD0, 0x0020 Bytes, ...) -- CPU is running -- CPU_ReadMem(32 bytes @ 0xE0000FD0) - Data: 04 00 00 00 00 00 00 00 00 00 00 00 00 00 00 00 ...  returns 0x00 (0002ms, 0671ms total)
T2C24 000:916 JLINK_ReadMem (0xE0040FF0, 0x0010 Bytes, ...) -- CPU is running -- CPU_ReadMem(16 bytes @ 0xE0040FF0) - Data: 0D 00 00 00 90 00 00 00 05 00 00 00 B1 00 00 00  returns 0x00 (0001ms, 0672ms total)
T2C24 000:917 JLINK_ReadMem (0xE0040FD0, 0x0020 Bytes, ...) -- CPU is running -- CPU_ReadMem(32 bytes @ 0xE0040FD0) - Data: 04 00 00 00 00 00 00 00 00 00 00 00 00 00 00 00 ...  returns 0x00 (0001ms, 0673ms total)
T2C24 000:918 JLINK_ReadMemU32(0xE000ED00, 0x0001 Items, ...) -- CPU is running -- CPU_ReadMem(4 bytes @ 0xE000ED00) - Data: 31 C2 1F 41  returns 0x01 (0001ms, 0674ms total)
T2C24 000:919 JLINK_SetResetType(JLINKARM_RESET_TYPE_NORMAL)  returns JLINKARM_RESET_TYPE_NORMAL (0000ms, 0674ms total)
T2C24 000:919 JLINK_Reset() -- CPU is running -- CPU_WriteMem(4 bytes @ 0xE000EDF0) -- CPU is running -- CPU_WriteMem(4 bytes @ 0xE000EDFC) >0x35 TIF> -- CPU is running -- CPU_WriteMem(4 bytes @ 0xE000ED0C) -- CPU is running -- CPU_ReadMem(4 bytes @ 0xE000EDF0) -- CPU is running -- CPU_ReadMem(4 bytes @ 0xE000EDF0) -- CPU is running -- CPU_WriteMem(4 bytes @ 0xE000EDF0) -- CPU is running -- CPU_WriteMem(4 bytes @ 0xE000EDFC) -- CPU is running -- CPU_ReadMem(4 bytes @ 0xE000EDF0)
 -- CPU_WriteMem(4 bytes @ 0xE0002000) -- CPU_ReadMem(4 bytes @ 0xE000EDFC) -- CPU_ReadMem(4 bytes @ 0xE0001000) (0021ms, 0695ms total)
T2C24 000:940 JLINK_Halt()  returns 0x00 (0000ms, 0695ms total)
T2C24 000:940 JLINK_IsHalted()  returns TRUE (0000ms, 0695ms total)
T2C24 000:940 JLINK_ReadMemU32(0xE000EDF0, 0x0001 Items, ...) -- CPU_ReadMem(4 bytes @ 0xE000EDF0) - Data: 03 00 03 00  returns 0x01 (0001ms, 0696ms total)
T2C24 000:941 JLINK_WriteU32(0xE000EDF0, 0xA05F0003) -- CPU_WriteMem(4 bytes @ 0xE000EDF0)  returns 0x00 (0000ms, 0696ms total)
T2C24 000:941 JLINK_WriteU32(0xE000EDFC, 0x01000000) -- CPU_WriteMem(4 bytes @ 0xE000EDFC)  returns 0x00 (0001ms, 0697ms total)
T2C24 000:964 JLINK_GetHWStatus(...)  returns 0x00 (0001ms, 0698ms total)
T2C24 000:979 JLINK_GetNumBPUnits(Type = 0xFFFFFF00)  returns 0x06 (0000ms, 0698ms total)
T2C24 000:979 JLINK_GetNumBPUnits(Type = 0xF0)  returns 0x2000 (0000ms, 0698ms total)
T2C24 000:979 JLINK_GetNumWPUnits()  returns 0x04 (0000ms, 0698ms total)
T2C24 000:989 JLINK_GetSpeed()  returns 0xFA0 (0000ms, 0698ms total)
T2C24 000:997 JLINK_ReadMemU32(0xE000E004, 0x0001 Items, ...) -- CPU_ReadMem(4 bytes @ 0xE000E004) - Data: 01 00 00 00  returns 0x01 (0001ms, 0699ms total)
T2C24 000:998 JLINK_ReadMemU32(0xE000E004, 0x0001 Items, ...) -- CPU_ReadMem(4 bytes @ 0xE000E004) - Data: 01 00 00 00  returns 0x01 (0001ms, 0700ms total)
T2C24 000:999 JLINK_WriteMem(0xE0001000, 0x001C Bytes, ...) - Data: 01 00 00 00 00 00 00 00 00 00 00 00 00 00 00 00 ... -- CPU_WriteMem(28 bytes @ 0xE0001000)  returns 0x1C (0001ms, 0701ms total)
T2C24 001:000 JLINK_ReadMem (0xE0001000, 0x001C Bytes, ...) -- CPU_ReadMem(28 bytes @ 0xE0001000) - Data: 01 00 00 40 00 00 00 00 00 00 00 00 00 00 00 00 ...  returns 0x00 (0001ms, 0702ms total)
T2C24 001:001 JLINK_Halt()  returns 0x00 (0001ms, 0703ms total)
T2C24 001:002 JLINK_IsHalted()  returns TRUE (0000ms, 0703ms total)
T2C24 001:004 JLINK_WriteMem(0x20000000, 0x0164 Bytes, ...) - Data: 00 BE 0A E0 0D 78 2D 06 68 40 08 24 40 00 00 D3 ... -- CPU_WriteMem(356 bytes @ 0x20000000)  returns 0x164 (0006ms, 0709ms total)
T2C24 001:010 JLINK_WriteReg(R0, 0x08000000)  returns 0x00 (0000ms, 0709ms total)
T2C24 001:010 JLINK_WriteReg(R1, 0x00B71B00)  returns 0x00 (0000ms, 0709ms total)
T2C24 001:010 JLINK_WriteReg(R2, 0x00000001)  returns 0x00 (0000ms, 0709ms total)
T2C24 001:010 JLINK_WriteReg(R3, 0x00000000)  returns 0x00 (0000ms, 0709ms total)
T2C24 001:010 JLINK_WriteReg(R4, 0x00000000)  returns 0x00 (0000ms, 0709ms total)
T2C24 001:010 JLINK_WriteReg(R5, 0x00000000)  returns 0x00 (0000ms, 0709ms total)
T2C24 001:010 JLINK_WriteReg(R6, 0x00000000)  returns 0x00 (0000ms, 0709ms total)
T2C24 001:010 JLINK_WriteReg(R7, 0x00000000)  returns 0x00 (0000ms, 0709ms total)
T2C24 001:010 JLINK_WriteReg(R8, 0x00000000)  returns 0x00 (0000ms, 0709ms total)
T2C24 001:010 JLINK_WriteReg(R9, 0x20000160)  returns 0x00 (0000ms, 0709ms total)
T2C24 001:010 JLINK_WriteReg(R10, 0x00000000)  returns 0x00 (0000ms, 0709ms total)
T2C24 001:010 JLINK_WriteReg(R11, 0x00000000)  returns 0x00 (0000ms, 0709ms total)
T2C24 001:010 JLINK_WriteReg(R12, 0x00000000)  returns 0x00 (0000ms, 0709ms total)
T2C24 001:010 JLINK_WriteReg(R13 (SP), 0x20000800)  returns 0x00 (0000ms, 0709ms total)
T2C24 001:010 JLINK_WriteReg(R14, 0x20000001)  returns 0x00 (0000ms, 0709ms total)
T2C24 001:010 JLINK_WriteReg(R15 (PC), 0x20000038)  returns 0x00 (0000ms, 0709ms total)
T2C24 001:010 JLINK_WriteReg(XPSR, 0x01000000)  returns 0x00 (0000ms, 0709ms total)
T2C24 001:010 JLINK_WriteReg(MSP, 0x20000800)  returns 0x00 (0001ms, 0710ms total)
T2C24 001:011 JLINK_WriteReg(PSP, 0x20000800)  returns 0x00 (0000ms, 0710ms total)
T2C24 001:011 JLINK_WriteReg(CFBP, 0x00000000)  returns 0x00 (0000ms, 0710ms total)
T2C24 001:011 JLINK_SetBPEx(Addr = 0x20000000, Type = 0xFFFFFFF2) -- CPU_ReadMem(2 bytes @ 0x20000000)  returns 0x00000001 (0001ms, 0711ms total)
T2C24 001:012 JLINK_Go() -- CPU_WriteMem(2 bytes @ 0x20000000) -- CPU_WriteMem(4 bytes @ 0xE0002008) -- CPU_WriteMem(4 bytes @ 0xE000200C) -- CPU_WriteMem(4 bytes @ 0xE0002010) -- CPU_WriteMem(4 bytes @ 0xE0002014) -- CPU_WriteMem(4 bytes @ 0xE0002018) -- CPU_WriteMem(4 bytes @ 0xE000201C) -- CPU_WriteMem(4 bytes @ 0xE0001004) (0010ms, 0721ms total)
T2C24 001:022 JLINK_IsHalted() -- CPU_ReadMem(2 bytes @ 0x20000000)  returns TRUE (0004ms, 0725ms total)
T2C24 001:026 JLINK_ReadReg(R15 (PC))  returns 0x20000000 (0000ms, 0721ms total)
T2C24 001:026 JLINK_ClrBPEx(BPHandle = 0x00000001)  returns 0x00 (0000ms, 0721ms total)
T2C24 001:026 JLINK_ReadReg(R0)  returns 0x00000000 (0000ms, 0721ms total)
T2C24 001:027 JLINK_WriteReg(R0, 0x08000000)  returns 0x00 (0000ms, 0721ms total)
T2C24 001:027 JLINK_WriteReg(R1, 0x00B71B00)  returns 0x00 (0000ms, 0721ms total)
T2C24 001:027 JLINK_WriteReg(R2, 0x00000001)  returns 0x00 (0000ms, 0721ms total)
T2C24 001:027 JLINK_WriteReg(R3, 0x00000000)  returns 0x00 (0000ms, 0721ms total)
T2C24 001:027 JLINK_WriteReg(R4, 0x00000000)  returns 0x00 (0000ms, 0721ms total)
T2C24 001:027 JLINK_WriteReg(R5, 0x00000000)  returns 0x00 (0000ms, 0721ms total)
T2C24 001:027 JLINK_WriteReg(R6, 0x00000000)  returns 0x00 (0000ms, 0721ms total)
T2C24 001:027 JLINK_WriteReg(R7, 0x00000000)  returns 0x00 (0000ms, 0721ms total)
T2C24 001:027 JLINK_WriteReg(R8, 0x00000000)  returns 0x00 (0000ms, 0721ms total)
T2C24 001:027 JLINK_WriteReg(R9, 0x20000160)  returns 0x00 (0000ms, 0721ms total)
T2C24 001:027 JLINK_WriteReg(R10, 0x00000000)  returns 0x00 (0000ms, 0721ms total)
T2C24 001:027 JLINK_WriteReg(R11, 0x00000000)  returns 0x00 (0000ms, 0721ms total)
T2C24 001:027 JLINK_WriteReg(R12, 0x00000000)  returns 0x00 (0000ms, 0721ms total)
T2C24 001:027 JLINK_WriteReg(R13 (SP), 0x20000800)  returns 0x00 (0001ms, 0722ms total)
T2C24 001:028 JLINK_WriteReg(R14, 0x20000001)  returns 0x00 (0000ms, 0722ms total)
T2C24 001:028 JLINK_WriteReg(R15 (PC), 0x2000007C)  returns 0x00 (0000ms, 0722ms total)
T2C24 001:028 JLINK_WriteReg(XPSR, 0x01000000)  returns 0x00 (0000ms, 0722ms total)
T2C24 001:028 JLINK_WriteReg(MSP, 0x20000800)  returns 0x00 (0000ms, 0722ms total)
T2C24 001:028 JLINK_WriteReg(PSP, 0x20000800)  returns 0x00 (0000ms, 0722ms total)
T2C24 001:028 JLINK_WriteReg(CFBP, 0x00000000)  returns 0x00 (0000ms, 0722ms total)
T2C24 001:028 JLINK_SetBPEx(Addr = 0x20000000, Type = 0xFFFFFFF2)  returns 0x00000002 (0000ms, 0722ms total)
T2C24 001:028 JLINK_Go() (0002ms, 0724ms total)
T2C24 001:030 JLINK_IsHalted()  returns FALSE (0000ms, 0724ms total)
T2C24 001:239 JLINK_IsHalted() -- CPU_ReadMem(2 bytes @ 0x20000000)  returns TRUE (0004ms, 0728ms total)
T2C24 001:243 JLINK_ReadReg(R15 (PC))  returns 0x20000000 (0000ms, 0724ms total)
T2C24 001:243 JLINK_ClrBPEx(BPHandle = 0x00000002)  returns 0x00 (0000ms, 0724ms total)
T2C24 001:243 JLINK_ReadReg(R0)  returns 0x00000000 (0000ms, 0724ms total)
T2C24 001:293 JLINK_WriteReg(R0, 0x00000001)  returns 0x00 (0000ms, 0724ms total)
T2C24 001:293 JLINK_WriteReg(R1, 0x00B71B00)  returns 0x00 (0000ms, 0724ms total)
T2C24 001:293 JLINK_WriteReg(R2, 0x00000001)  returns 0x00 (0001ms, 0725ms total)
T2C24 001:294 JLINK_WriteReg(R3, 0x00000000)  returns 0x00 (0000ms, 0725ms total)
T2C24 001:294 JLINK_WriteReg(R4, 0x00000000)  returns 0x00 (0000ms, 0725ms total)
T2C24 001:294 JLINK_WriteReg(R5, 0x00000000)  returns 0x00 (0000ms, 0725ms total)
T2C24 001:294 JLINK_WriteReg(R6, 0x00000000)  returns 0x00 (0000ms, 0725ms total)
T2C24 001:294 JLINK_WriteReg(R7, 0x00000000)  returns 0x00 (0000ms, 0725ms total)
T2C24 001:294 JLINK_WriteReg(R8, 0x00000000)  returns 0x00 (0000ms, 0725ms total)
T2C24 001:294 JLINK_WriteReg(R9, 0x20000160)  returns 0x00 (0000ms, 0725ms total)
T2C24 001:294 JLINK_WriteReg(R10, 0x00000000)  returns 0x00 (0000ms, 0725ms total)
T2C24 001:294 JLINK_WriteReg(R11, 0x00000000)  returns 0x00 (0000ms, 0725ms total)
T2C24 001:294 JLINK_WriteReg(R12, 0x00000000)  returns 0x00 (0000ms, 0725ms total)
T2C24 001:294 JLINK_WriteReg(R13 (SP), 0x20000800)  returns 0x00 (0000ms, 0725ms total)
T2C24 001:294 JLINK_WriteReg(R14, 0x20000001)  returns 0x00 (0000ms, 0725ms total)
T2C24 001:294 JLINK_WriteReg(R15 (PC), 0x2000006A)  returns 0x00 (0000ms, 0725ms total)
T2C24 001:294 JLINK_WriteReg(XPSR, 0x01000000)  returns 0x00 (0000ms, 0725ms total)
T2C24 001:294 JLINK_WriteReg(MSP, 0x20000800)  returns 0x00 (0000ms, 0725ms total)
T2C24 001:294 JLINK_WriteReg(PSP, 0x20000800)  returns 0x00 (0000ms, 0725ms total)
T2C24 001:294 JLINK_WriteReg(CFBP, 0x00000000)  returns 0x00 (0000ms, 0725ms total)
T2C24 001:294 JLINK_SetBPEx(Addr = 0x20000000, Type = 0xFFFFFFF2)  returns 0x00000003 (0000ms, 0725ms total)
T2C24 001:294 JLINK_Go() (0002ms, 0727ms total)
T2C24 001:296 JLINK_IsHalted() -- CPU_ReadMem(2 bytes @ 0x20000000)  returns TRUE (0005ms, 0732ms total)
T2C24 001:301 JLINK_ReadReg(R15 (PC))  returns 0x20000000 (0000ms, 0727ms total)
T2C24 001:301 JLINK_ClrBPEx(BPHandle = 0x00000003)  returns 0x00 (0000ms, 0727ms total)
T2C24 001:301 JLINK_ReadReg(R0)  returns 0x00000000 (0000ms, 0727ms total)
T2C24 001:307 JLINK_WriteMem(0x20000000, 0x0164 Bytes, ...) - Data: 00 BE 0A E0 0D 78 2D 06 68 40 08 24 40 00 00 D3 ... -- CPU_WriteMem(356 bytes @ 0x20000000)  returns 0x164 (0005ms, 0732ms total)
T2C24 001:312 JLINK_WriteReg(R0, 0x08000000)  returns 0x00 (0000ms, 0732ms total)
T2C24 001:312 JLINK_WriteReg(R1, 0x00B71B00)  returns 0x00 (0000ms, 0732ms total)
T2C24 001:312 JLINK_WriteReg(R2, 0x00000002)  returns 0x00 (0000ms, 0732ms total)
T2C24 001:312 JLINK_WriteReg(R3, 0x00000000)  returns 0x00 (0000ms, 0732ms total)
T2C24 001:312 JLINK_WriteReg(R4, 0x00000000)  returns 0x00 (0000ms, 0732ms total)
T2C24 001:312 JLINK_WriteReg(R5, 0x00000000)  returns 0x00 (0000ms, 0732ms total)
T2C24 001:312 JLINK_WriteReg(R6, 0x00000000)  returns 0x00 (0000ms, 0732ms total)
T2C24 001:312 JLINK_WriteReg(R7, 0x00000000)  returns 0x00 (0000ms, 0732ms total)
T2C24 001:312 JLINK_WriteReg(R8, 0x00000000)  returns 0x00 (0000ms, 0732ms total)
T2C24 001:312 JLINK_WriteReg(R9, 0x20000160)  returns 0x00 (0000ms, 0732ms total)
T2C24 001:312 JLINK_WriteReg(R10, 0x00000000)  returns 0x00 (0000ms, 0732ms total)
T2C24 001:312 JLINK_WriteReg(R11, 0x00000000)  returns 0x00 (0000ms, 0732ms total)
T2C24 001:312 JLINK_WriteReg(R12, 0x00000000)  returns 0x00 (0000ms, 0732ms total)
T2C24 001:312 JLINK_WriteReg(R13 (SP), 0x20000800)  returns 0x00 (0000ms, 0732ms total)
T2C24 001:312 JLINK_WriteReg(R14, 0x20000001)  returns 0x00 (0000ms, 0732ms total)
T2C24 001:312 JLINK_WriteReg(R15 (PC), 0x20000038)  returns 0x00 (0000ms, 0732ms total)
T2C24 001:312 JLINK_WriteReg(XPSR, 0x01000000)  returns 0x00 (0000ms, 0732ms total)
T2C24 001:312 JLINK_WriteReg(MSP, 0x20000800)  returns 0x00 (0001ms, 0733ms total)
T2C24 001:313 JLINK_WriteReg(PSP, 0x20000800)  returns 0x00 (0000ms, 0733ms total)
T2C24 001:313 JLINK_WriteReg(CFBP, 0x00000000)  returns 0x00 (0000ms, 0733ms total)
T2C24 001:313 JLINK_SetBPEx(Addr = 0x20000000, Type = 0xFFFFFFF2) -- CPU_ReadMem(2 bytes @ 0x20000000)  returns 0x00000004 (0000ms, 0733ms total)
T2C24 001:313 JLINK_Go() -- CPU_WriteMem(2 bytes @ 0x20000000) (0003ms, 0736ms total)
T2C24 001:316 JLINK_IsHalted() -- CPU_ReadMem(2 bytes @ 0x20000000)  returns TRUE (0004ms, 0740ms total)
T2C24 001:320 JLINK_ReadReg(R15 (PC))  returns 0x20000000 (0000ms, 0736ms total)
T2C24 001:320 JLINK_ClrBPEx(BPHandle = 0x00000004)  returns 0x00 (0000ms, 0736ms total)
T2C24 001:320 JLINK_ReadReg(R0)  returns 0x00000000 (0000ms, 0736ms total)
T2C24 001:321 JLINK_WriteMem(0x20000164, 0x0400 Bytes, ...) - Data: C0 0A 00 20 AD 5C 00 08 4D 2A 00 08 B7 5C 00 08 ... -- CPU_WriteMem(1024 bytes @ 0x20000164)  returns 0x400 (0012ms, 0748ms total)
T2C24 001:333 JLINK_WriteReg(R0, 0x08000000)  returns 0x00 (0000ms, 0748ms total)
T2C24 001:333 JLINK_WriteReg(R1, 0x00000400)  returns 0x00 (0000ms, 0748ms total)
T2C24 001:333 JLINK_WriteReg(R2, 0x20000164)  returns 0x00 (0000ms, 0748ms total)
T2C24 001:333 JLINK_WriteReg(R3, 0x00000000)  returns 0x00 (0000ms, 0748ms total)
T2C24 001:333 JLINK_WriteReg(R4, 0x00000000)  returns 0x00 (0000ms, 0748ms total)
T2C24 001:333 JLINK_WriteReg(R5, 0x00000000)  returns 0x00 (0000ms, 0748ms total)
T2C24 001:333 JLINK_WriteReg(R6, 0x00000000)  returns 0x00 (0001ms, 0749ms total)
T2C24 001:334 JLINK_WriteReg(R7, 0x00000000)  returns 0x00 (0000ms, 0749ms total)
T2C24 001:334 JLINK_WriteReg(R8, 0x00000000)  returns 0x00 (0000ms, 0749ms total)
T2C24 001:334 JLINK_WriteReg(R9, 0x20000160)  returns 0x00 (0000ms, 0749ms total)
T2C24 001:334 JLINK_WriteReg(R10, 0x00000000)  returns 0x00 (0000ms, 0749ms total)
T2C24 001:334 JLINK_WriteReg(R11, 0x00000000)  returns 0x00 (0000ms, 0749ms total)
T2C24 001:334 JLINK_WriteReg(R12, 0x00000000)  returns 0x00 (0000ms, 0749ms total)
T2C24 001:334 JLINK_WriteReg(R13 (SP), 0x20000800)  returns 0x00 (0000ms, 0749ms total)
T2C24 001:334 JLINK_WriteReg(R14, 0x20000001)  returns 0x00 (0000ms, 0749ms total)
T2C24 001:334 JLINK_WriteReg(R15 (PC), 0x200000F4)  returns 0x00 (0000ms, 0749ms total)
T2C24 001:334 JLINK_WriteReg(XPSR, 0x01000000)  returns 0x00 (0000ms, 0749ms total)
T2C24 001:334 JLINK_WriteReg(MSP, 0x20000800)  returns 0x00 (0000ms, 0749ms total)
T2C24 001:334 JLINK_WriteReg(PSP, 0x20000800)  returns 0x00 (0000ms, 0749ms total)
T2C24 001:334 JLINK_WriteReg(CFBP, 0x00000000)  returns 0x00 (0000ms, 0749ms total)
T2C24 001:334 JLINK_SetBPEx(Addr = 0x20000000, Type = 0xFFFFFFF2)  returns 0x00000005 (0000ms, 0749ms total)
T2C24 001:334 JLINK_Go() (0003ms, 0752ms total)
T2C24 001:337 JLINK_IsHalted()  returns FALSE (0001ms, 0753ms total)
T2C24 001:415 JLINK_IsHalted() -- CPU_ReadMem(2 bytes @ 0x20000000)  returns TRUE (0005ms, 0757ms total)
T2C24 001:420 JLINK_ReadReg(R15 (PC))  returns 0x20000000 (0000ms, 0752ms total)
T2C24 001:420 JLINK_ClrBPEx(BPHandle = 0x00000005)  returns 0x00 (0000ms, 0752ms total)
T2C24 001:420 JLINK_ReadReg(R0)  returns 0x00000000 (0000ms, 0752ms total)
T2C24 001:420 JLINK_WriteMem(0x20000164, 0x0400 Bytes, ...) - Data: EF FC 06 46 32 46 17 A9 04 A8 06 F0 36 FC 04 A8 ... -- CPU_WriteMem(1024 bytes @ 0x20000164)  returns 0x400 (0013ms, 0765ms total)
T2C24 001:433 JLINK_WriteReg(R0, 0x08000400)  returns 0x00 (0000ms, 0765ms total)
T2C24 001:433 JLINK_WriteReg(R1, 0x00000400)  returns 0x00 (0000ms, 0765ms total)
T2C24 001:433 JLINK_WriteReg(R2, 0x20000164)  returns 0x00 (0000ms, 0765ms total)
T2C24 001:433 JLINK_WriteReg(R3, 0x00000000)  returns 0x00 (0000ms, 0765ms total)
T2C24 001:433 JLINK_WriteReg(R4, 0x00000000)  returns 0x00 (0000ms, 0765ms total)
T2C24 001:433 JLINK_WriteReg(R5, 0x00000000)  returns 0x00 (0000ms, 0765ms total)
T2C24 001:433 JLINK_WriteReg(R6, 0x00000000)  returns 0x00 (0000ms, 0765ms total)
T2C24 001:433 JLINK_WriteReg(R7, 0x00000000)  returns 0x00 (0000ms, 0765ms total)
T2C24 001:433 JLINK_WriteReg(R8, 0x00000000)  returns 0x00 (0000ms, 0765ms total)
T2C24 001:433 JLINK_WriteReg(R9, 0x20000160)  returns 0x00 (0001ms, 0766ms total)
T2C24 001:434 JLINK_WriteReg(R10, 0x00000000)  returns 0x00 (0000ms, 0766ms total)
T2C24 001:434 JLINK_WriteReg(R11, 0x00000000)  returns 0x00 (0000ms, 0766ms total)
T2C24 001:434 JLINK_WriteReg(R12, 0x00000000)  returns 0x00 (0000ms, 0766ms total)
T2C24 001:434 JLINK_WriteReg(R13 (SP), 0x20000800)  returns 0x00 (0000ms, 0766ms total)
T2C24 001:434 JLINK_WriteReg(R14, 0x20000001)  returns 0x00 (0000ms, 0766ms total)
T2C24 001:434 JLINK_WriteReg(R15 (PC), 0x200000F4)  returns 0x00 (0000ms, 0766ms total)
T2C24 001:434 JLINK_WriteReg(XPSR, 0x01000000)  returns 0x00 (0000ms, 0766ms total)
T2C24 001:434 JLINK_WriteReg(MSP, 0x20000800)  returns 0x00 (0000ms, 0766ms total)
T2C24 001:434 JLINK_WriteReg(PSP, 0x20000800)  returns 0x00 (0000ms, 0766ms total)
T2C24 001:434 JLINK_WriteReg(CFBP, 0x00000000)  returns 0x00 (0000ms, 0766ms total)
T2C24 001:434 JLINK_SetBPEx(Addr = 0x20000000, Type = 0xFFFFFFF2)  returns 0x00000006 (0000ms, 0766ms total)
T2C24 001:434 JLINK_Go() (0002ms, 0768ms total)
T2C24 001:436 JLINK_IsHalted()  returns FALSE (0001ms, 0769ms total)
T2C24 001:440 JLINK_IsHalted()  returns FALSE (0000ms, 0768ms total)
T2C24 001:441 JLINK_IsHalted()  returns FALSE (0000ms, 0768ms total)
T2C24 001:442 JLINK_IsHalted()  returns FALSE (0000ms, 0768ms total)
T2C24 001:443 JLINK_IsHalted()  returns FALSE (0000ms, 0768ms total)
T2C24 001:444 JLINK_IsHalted()  returns FALSE (0000ms, 0768ms total)
T2C24 001:445 JLINK_IsHalted()  returns FALSE (0000ms, 0768ms total)
T2C24 001:446 JLINK_IsHalted()  returns FALSE (0000ms, 0768ms total)
T2C24 001:447 JLINK_IsHalted()  returns FALSE (0000ms, 0768ms total)
T2C24 001:448 JLINK_IsHalted()  returns FALSE (0000ms, 0768ms total)
T2C24 001:449 JLINK_IsHalted()  returns FALSE (0000ms, 0768ms total)
T2C24 001:450 JLINK_IsHalted()  returns FALSE (0000ms, 0768ms total)
T2C24 001:451 JLINK_IsHalted()  returns FALSE (0000ms, 0768ms total)
T2C24 001:452 JLINK_IsHalted()  returns FALSE (0001ms, 0769ms total)
T2C24 001:454 JLINK_IsHalted()  returns FALSE (0000ms, 0768ms total)
T2C24 001:455 JLINK_IsHalted()  returns FALSE (0000ms, 0768ms total)
T2C24 001:457 JLINK_IsHalted()  returns FALSE (0000ms, 0768ms total)
T2C24 001:458 JLINK_IsHalted()  returns FALSE (0000ms, 0768ms total)
T2C24 001:459 JLINK_IsHalted()  returns FALSE (0000ms, 0768ms total)
T2C24 001:460 JLINK_IsHalted()  returns FALSE (0000ms, 0768ms total)
T2C24 001:461 JLINK_IsHalted()  returns FALSE (0000ms, 0768ms total)
T2C24 001:462 JLINK_IsHalted()  returns FALSE (0000ms, 0768ms total)
T2C24 001:463 JLINK_IsHalted()  returns FALSE (0000ms, 0768ms total)
T2C24 001:464 JLINK_IsHalted()  returns FALSE (0000ms, 0768ms total)
T2C24 001:465 JLINK_IsHalted()  returns FALSE (0000ms, 0768ms total)
T2C24 001:466 JLINK_IsHalted()  returns FALSE (0000ms, 0768ms total)
T2C24 001:467 JLINK_IsHalted()  returns FALSE (0000ms, 0768ms total)
T2C24 001:468 JLINK_IsHalted() -- CPU_ReadMem(2 bytes @ 0x20000000)  returns TRUE (0004ms, 0772ms total)
T2C24 001:472 JLINK_ReadReg(R15 (PC))  returns 0x20000000 (0000ms, 0768ms total)
T2C24 001:472 JLINK_ClrBPEx(BPHandle = 0x00000006)  returns 0x00 (0000ms, 0768ms total)
T2C24 001:472 JLINK_ReadReg(R0)  returns 0x00000000 (0000ms, 0768ms total)
T2C24 001:473 JLINK_WriteMem(0x20000164, 0x0400 Bytes, ...) - Data: FC 00 00 20 08 00 00 20 08 01 00 20 04 00 00 20 ... -- CPU_WriteMem(1024 bytes @ 0x20000164)  returns 0x400 (0013ms, 0781ms total)
T2C24 001:486 JLINK_WriteReg(R0, 0x08000800)  returns 0x00 (0000ms, 0781ms total)
T2C24 001:486 JLINK_WriteReg(R1, 0x00000400)  returns 0x00 (0000ms, 0781ms total)
T2C24 001:486 JLINK_WriteReg(R2, 0x20000164)  returns 0x00 (0000ms, 0781ms total)
T2C24 001:486 JLINK_WriteReg(R3, 0x00000000)  returns 0x00 (0000ms, 0781ms total)
T2C24 001:486 JLINK_WriteReg(R4, 0x00000000)  returns 0x00 (0000ms, 0781ms total)
T2C24 001:486 JLINK_WriteReg(R5, 0x00000000)  returns 0x00 (0000ms, 0781ms total)
T2C24 001:486 JLINK_WriteReg(R6, 0x00000000)  returns 0x00 (0000ms, 0781ms total)
T2C24 001:487 JLINK_WriteReg(R7, 0x00000000)  returns 0x00 (0000ms, 0782ms total)
T2C24 001:487 JLINK_WriteReg(R8, 0x00000000)  returns 0x00 (0000ms, 0782ms total)
T2C24 001:487 JLINK_WriteReg(R9, 0x20000160)  returns 0x00 (0000ms, 0782ms total)
T2C24 001:487 JLINK_WriteReg(R10, 0x00000000)  returns 0x00 (0000ms, 0782ms total)
T2C24 001:487 JLINK_WriteReg(R11, 0x00000000)  returns 0x00 (0000ms, 0782ms total)
T2C24 001:487 JLINK_WriteReg(R12, 0x00000000)  returns 0x00 (0000ms, 0782ms total)
T2C24 001:487 JLINK_WriteReg(R13 (SP), 0x20000800)  returns 0x00 (0000ms, 0782ms total)
T2C24 001:487 JLINK_WriteReg(R14, 0x20000001)  returns 0x00 (0000ms, 0782ms total)
T2C24 001:487 JLINK_WriteReg(R15 (PC), 0x200000F4)  returns 0x00 (0000ms, 0782ms total)
T2C24 001:487 JLINK_WriteReg(XPSR, 0x01000000)  returns 0x00 (0000ms, 0782ms total)
T2C24 001:487 JLINK_WriteReg(MSP, 0x20000800)  returns 0x00 (0000ms, 0782ms total)
T2C24 001:487 JLINK_WriteReg(PSP, 0x20000800)  returns 0x00 (0000ms, 0782ms total)
T2C24 001:488 JLINK_WriteReg(CFBP, 0x00000000)  returns 0x00 (0000ms, 0783ms total)
T2C24 001:488 JLINK_SetBPEx(Addr = 0x20000000, Type = 0xFFFFFFF2)  returns 0x00000007 (0000ms, 0783ms total)
T2C24 001:488 JLINK_Go() (0002ms, 0785ms total)
T2C24 001:490 JLINK_IsHalted()  returns FALSE (0001ms, 0786ms total)
T2C24 001:526 JLINK_IsHalted() -- CPU_ReadMem(2 bytes @ 0x20000000)  returns TRUE (0004ms, 0789ms total)
T2C24 001:530 JLINK_ReadReg(R15 (PC))  returns 0x20000000 (0000ms, 0785ms total)
T2C24 001:530 JLINK_ClrBPEx(BPHandle = 0x00000007)  returns 0x00 (0000ms, 0785ms total)
T2C24 001:530 JLINK_ReadReg(R0)  returns 0x00000000 (0001ms, 0786ms total)
T2C24 001:531 JLINK_WriteMem(0x20000164, 0x0400 Bytes, ...) - Data: CD B2 04 F1 08 01 0A 54 9D F8 00 20 28 46 69 1C ... -- CPU_WriteMem(1024 bytes @ 0x20000164)  returns 0x400 (0013ms, 0799ms total)
T2C24 001:544 JLINK_WriteReg(R0, 0x08000C00)  returns 0x00 (0000ms, 0799ms total)
T2C24 001:544 JLINK_WriteReg(R1, 0x00000400)  returns 0x00 (0000ms, 0799ms total)
T2C24 001:544 JLINK_WriteReg(R2, 0x20000164)  returns 0x00 (0000ms, 0799ms total)
T2C24 001:544 JLINK_WriteReg(R3, 0x00000000)  returns 0x00 (0000ms, 0799ms total)
T2C24 001:544 JLINK_WriteReg(R4, 0x00000000)  returns 0x00 (0000ms, 0799ms total)
T2C24 001:544 JLINK_WriteReg(R5, 0x00000000)  returns 0x00 (0000ms, 0799ms total)
T2C24 001:544 JLINK_WriteReg(R6, 0x00000000)  returns 0x00 (0000ms, 0799ms total)
T2C24 001:544 JLINK_WriteReg(R7, 0x00000000)  returns 0x00 (0000ms, 0799ms total)
T2C24 001:544 JLINK_WriteReg(R8, 0x00000000)  returns 0x00 (0000ms, 0799ms total)
T2C24 001:544 JLINK_WriteReg(R9, 0x20000160)  returns 0x00 (0000ms, 0799ms total)
T2C24 001:544 JLINK_WriteReg(R10, 0x00000000)  returns 0x00 (0000ms, 0799ms total)
T2C24 001:544 JLINK_WriteReg(R11, 0x00000000)  returns 0x00 (0000ms, 0799ms total)
T2C24 001:544 JLINK_WriteReg(R12, 0x00000000)  returns 0x00 (0000ms, 0799ms total)
T2C24 001:544 JLINK_WriteReg(R13 (SP), 0x20000800)  returns 0x00 (0000ms, 0799ms total)
T2C24 001:544 JLINK_WriteReg(R14, 0x20000001)  returns 0x00 (0000ms, 0799ms total)
T2C24 001:544 JLINK_WriteReg(R15 (PC), 0x200000F4)  returns 0x00 (0000ms, 0799ms total)
T2C24 001:544 JLINK_WriteReg(XPSR, 0x01000000)  returns 0x00 (0000ms, 0799ms total)
T2C24 001:544 JLINK_WriteReg(MSP, 0x20000800)  returns 0x00 (0001ms, 0800ms total)
T2C24 001:545 JLINK_WriteReg(PSP, 0x20000800)  returns 0x00 (0000ms, 0800ms total)
T2C24 001:545 JLINK_WriteReg(CFBP, 0x00000000)  returns 0x00 (0000ms, 0800ms total)
T2C24 001:545 JLINK_SetBPEx(Addr = 0x20000000, Type = 0xFFFFFFF2)  returns 0x00000008 (0000ms, 0800ms total)
T2C24 001:545 JLINK_Go() (0002ms, 0802ms total)
T2C24 001:547 JLINK_IsHalted()  returns FALSE (0001ms, 0803ms total)
T2C24 001:549 JLINK_IsHalted()  returns FALSE (0000ms, 0802ms total)
T2C24 001:551 JLINK_IsHalted()  returns FALSE (0000ms, 0802ms total)
T2C24 001:552 JLINK_IsHalted()  returns FALSE (0000ms, 0802ms total)
T2C24 001:553 JLINK_IsHalted()  returns FALSE (0000ms, 0802ms total)
T2C24 001:554 JLINK_IsHalted()  returns FALSE (0000ms, 0802ms total)
T2C24 001:555 JLINK_IsHalted()  returns FALSE (0000ms, 0802ms total)
T2C24 001:556 JLINK_IsHalted()  returns FALSE (0000ms, 0802ms total)
T2C24 001:557 JLINK_IsHalted()  returns FALSE (0000ms, 0802ms total)
T2C24 001:558 JLINK_IsHalted()  returns FALSE (0000ms, 0802ms total)
T2C24 001:559 JLINK_IsHalted()  returns FALSE (0000ms, 0802ms total)
T2C24 001:560 JLINK_IsHalted()  returns FALSE (0000ms, 0802ms total)
T2C24 001:561 JLINK_IsHalted()  returns FALSE (0000ms, 0802ms total)
T2C24 001:562 JLINK_IsHalted()  returns FALSE (0000ms, 0802ms total)
T2C24 001:563 JLINK_IsHalted()  returns FALSE (0000ms, 0802ms total)
T2C24 001:564 JLINK_IsHalted()  returns FALSE (0000ms, 0802ms total)
T2C24 001:565 JLINK_IsHalted()  returns FALSE (0000ms, 0802ms total)
T2C24 001:566 JLINK_IsHalted()  returns FALSE (0000ms, 0802ms total)
T2C24 001:567 JLINK_IsHalted()  returns FALSE (0000ms, 0802ms total)
T2C24 001:568 JLINK_IsHalted()  returns FALSE (0000ms, 0802ms total)
T2C24 001:569 JLINK_IsHalted()  returns FALSE (0000ms, 0802ms total)
T2C24 001:570 JLINK_IsHalted()  returns FALSE (0000ms, 0802ms total)
T2C24 001:571 JLINK_IsHalted()  returns FALSE (0000ms, 0802ms total)
T2C24 001:572 JLINK_IsHalted()  returns FALSE (0000ms, 0802ms total)
T2C24 001:573 JLINK_IsHalted()  returns FALSE (0000ms, 0802ms total)
T2C24 001:574 JLINK_IsHalted()  returns FALSE (0000ms, 0802ms total)
T2C24 001:575 JLINK_IsHalted()  returns FALSE (0001ms, 0803ms total)
T2C24 001:577 JLINK_IsHalted()  returns FALSE (0000ms, 0802ms total)
T2C24 001:578 JLINK_IsHalted() -- CPU_ReadMem(2 bytes @ 0x20000000)  returns TRUE (0004ms, 0806ms total)
T2C24 001:582 JLINK_ReadReg(R15 (PC))  returns 0x20000000 (0000ms, 0802ms total)
T2C24 001:582 JLINK_ClrBPEx(BPHandle = 0x00000008)  returns 0x00 (0000ms, 0802ms total)
T2C24 001:582 JLINK_ReadReg(R0)  returns 0x00000000 (0000ms, 0802ms total)
T2C24 001:584 JLINK_WriteMem(0x20000164, 0x0400 Bytes, ...) - Data: 08 00 42 54 16 48 42 79 29 46 6D 1C 04 F1 08 00 ... -- CPU_WriteMem(1024 bytes @ 0x20000164)  returns 0x400 (0013ms, 0815ms total)
T2C24 001:597 JLINK_WriteReg(R0, 0x08001000)  returns 0x00 (0000ms, 0815ms total)
T2C24 001:597 JLINK_WriteReg(R1, 0x00000400)  returns 0x00 (0000ms, 0815ms total)
T2C24 001:597 JLINK_WriteReg(R2, 0x20000164)  returns 0x00 (0000ms, 0815ms total)
T2C24 001:597 JLINK_WriteReg(R3, 0x00000000)  returns 0x00 (0000ms, 0815ms total)
T2C24 001:597 JLINK_WriteReg(R4, 0x00000000)  returns 0x00 (0000ms, 0815ms total)
T2C24 001:597 JLINK_WriteReg(R5, 0x00000000)  returns 0x00 (0000ms, 0815ms total)
T2C24 001:597 JLINK_WriteReg(R6, 0x00000000)  returns 0x00 (0000ms, 0815ms total)
T2C24 001:597 JLINK_WriteReg(R7, 0x00000000)  returns 0x00 (0000ms, 0815ms total)
T2C24 001:597 JLINK_WriteReg(R8, 0x00000000)  returns 0x00 (0000ms, 0815ms total)
T2C24 001:597 JLINK_WriteReg(R9, 0x20000160)  returns 0x00 (0000ms, 0815ms total)
T2C24 001:597 JLINK_WriteReg(R10, 0x00000000)  returns 0x00 (0000ms, 0815ms total)
T2C24 001:597 JLINK_WriteReg(R11, 0x00000000)  returns 0x00 (0000ms, 0815ms total)
T2C24 001:597 JLINK_WriteReg(R12, 0x00000000)  returns 0x00 (0000ms, 0815ms total)
T2C24 001:597 JLINK_WriteReg(R13 (SP), 0x20000800)  returns 0x00 (0000ms, 0815ms total)
T2C24 001:597 JLINK_WriteReg(R14, 0x20000001)  returns 0x00 (0001ms, 0816ms total)
T2C24 001:598 JLINK_WriteReg(R15 (PC), 0x200000F4)  returns 0x00 (0000ms, 0816ms total)
T2C24 001:598 JLINK_WriteReg(XPSR, 0x01000000)  returns 0x00 (0000ms, 0816ms total)
T2C24 001:598 JLINK_WriteReg(MSP, 0x20000800)  returns 0x00 (0000ms, 0816ms total)
T2C24 001:598 JLINK_WriteReg(PSP, 0x20000800)  returns 0x00 (0000ms, 0816ms total)
T2C24 001:598 JLINK_WriteReg(CFBP, 0x00000000)  returns 0x00 (0000ms, 0816ms total)
T2C24 001:598 JLINK_SetBPEx(Addr = 0x20000000, Type = 0xFFFFFFF2)  returns 0x00000009 (0000ms, 0816ms total)
T2C24 001:598 JLINK_Go() (0002ms, 0818ms total)
T2C24 001:600 JLINK_IsHalted()  returns FALSE (0001ms, 0819ms total)
T2C24 001:636 JLINK_IsHalted() -- CPU_ReadMem(2 bytes @ 0x20000000)  returns TRUE (0004ms, 0822ms total)
T2C24 001:640 JLINK_ReadReg(R15 (PC))  returns 0x20000000 (0001ms, 0819ms total)
T2C24 001:641 JLINK_ClrBPEx(BPHandle = 0x00000009)  returns 0x00 (0000ms, 0819ms total)
T2C24 001:641 JLINK_ReadReg(R0)  returns 0x00000000 (0000ms, 0819ms total)
T2C24 001:641 JLINK_WriteMem(0x20000164, 0x0400 Bytes, ...) - Data: 31 44 CE B2 41 1C C8 B2 A8 42 F6 DB 28 46 69 1C ... -- CPU_WriteMem(1024 bytes @ 0x20000164)  returns 0x400 (0013ms, 0832ms total)
T2C24 001:654 JLINK_WriteReg(R0, 0x08001400)  returns 0x00 (0000ms, 0832ms total)
T2C24 001:654 JLINK_WriteReg(R1, 0x00000400)  returns 0x00 (0000ms, 0832ms total)
T2C24 001:654 JLINK_WriteReg(R2, 0x20000164)  returns 0x00 (0000ms, 0832ms total)
T2C24 001:654 JLINK_WriteReg(R3, 0x00000000)  returns 0x00 (0000ms, 0832ms total)
T2C24 001:654 JLINK_WriteReg(R4, 0x00000000)  returns 0x00 (0000ms, 0832ms total)
T2C24 001:654 JLINK_WriteReg(R5, 0x00000000)  returns 0x00 (0000ms, 0832ms total)
T2C24 001:654 JLINK_WriteReg(R6, 0x00000000)  returns 0x00 (0000ms, 0832ms total)
T2C24 001:654 JLINK_WriteReg(R7, 0x00000000)  returns 0x00 (0000ms, 0832ms total)
T2C24 001:654 JLINK_WriteReg(R8, 0x00000000)  returns 0x00 (0000ms, 0832ms total)
T2C24 001:654 JLINK_WriteReg(R9, 0x20000160)  returns 0x00 (0000ms, 0832ms total)
T2C24 001:654 JLINK_WriteReg(R10, 0x00000000)  returns 0x00 (0000ms, 0832ms total)
T2C24 001:654 JLINK_WriteReg(R11, 0x00000000)  returns 0x00 (0000ms, 0832ms total)
T2C24 001:654 JLINK_WriteReg(R12, 0x00000000)  returns 0x00 (0000ms, 0832ms total)
T2C24 001:654 JLINK_WriteReg(R13 (SP), 0x20000800)  returns 0x00 (0000ms, 0832ms total)
T2C24 001:654 JLINK_WriteReg(R14, 0x20000001)  returns 0x00 (0000ms, 0832ms total)
T2C24 001:654 JLINK_WriteReg(R15 (PC), 0x200000F4)  returns 0x00 (0000ms, 0832ms total)
T2C24 001:654 JLINK_WriteReg(XPSR, 0x01000000)  returns 0x00 (0000ms, 0832ms total)
T2C24 001:654 JLINK_WriteReg(MSP, 0x20000800)  returns 0x00 (0001ms, 0833ms total)
T2C24 001:655 JLINK_WriteReg(PSP, 0x20000800)  returns 0x00 (0000ms, 0833ms total)
T2C24 001:655 JLINK_WriteReg(CFBP, 0x00000000)  returns 0x00 (0000ms, 0833ms total)
T2C24 001:655 JLINK_SetBPEx(Addr = 0x20000000, Type = 0xFFFFFFF2)  returns 0x0000000A (0000ms, 0833ms total)
T2C24 001:655 JLINK_Go() (0002ms, 0835ms total)
T2C24 001:657 JLINK_IsHalted()  returns FALSE (0001ms, 0836ms total)
T2C24 001:661 JLINK_IsHalted()  returns FALSE (0000ms, 0835ms total)
T2C24 001:662 JLINK_IsHalted()  returns FALSE (0000ms, 0835ms total)
T2C24 001:663 JLINK_IsHalted()  returns FALSE (0000ms, 0835ms total)
T2C24 001:664 JLINK_IsHalted()  returns FALSE (0000ms, 0835ms total)
T2C24 001:665 JLINK_IsHalted()  returns FALSE (0000ms, 0835ms total)
T2C24 001:666 JLINK_IsHalted()  returns FALSE (0001ms, 0836ms total)
T2C24 001:668 JLINK_IsHalted()  returns FALSE (0000ms, 0835ms total)
T2C24 001:672 JLINK_IsHalted()  returns FALSE (0001ms, 0836ms total)
T2C24 001:674 JLINK_IsHalted()  returns FALSE (0000ms, 0835ms total)
T2C24 001:675 JLINK_IsHalted()  returns FALSE (0001ms, 0836ms total)
T2C24 001:678 JLINK_IsHalted()  returns FALSE (0000ms, 0835ms total)
T2C24 001:679 JLINK_IsHalted()  returns FALSE (0000ms, 0835ms total)
T2C24 001:680 JLINK_IsHalted()  returns FALSE (0000ms, 0835ms total)
T2C24 001:681 JLINK_IsHalted()  returns FALSE (0000ms, 0835ms total)
T2C24 001:682 JLINK_IsHalted()  returns FALSE (0000ms, 0835ms total)
T2C24 001:683 JLINK_IsHalted()  returns FALSE (0000ms, 0835ms total)
T2C24 001:684 JLINK_IsHalted()  returns FALSE (0000ms, 0835ms total)
T2C24 001:687 JLINK_IsHalted()  returns FALSE (0000ms, 0835ms total)
T2C24 001:688 JLINK_IsHalted() -- CPU_ReadMem(2 bytes @ 0x20000000)  returns TRUE (0004ms, 0839ms total)
T2C24 001:692 JLINK_ReadReg(R15 (PC))  returns 0x20000000 (0000ms, 0835ms total)
T2C24 001:692 JLINK_ClrBPEx(BPHandle = 0x0000000A)  returns 0x00 (0000ms, 0835ms total)
T2C24 001:692 JLINK_ReadReg(R0)  returns 0x00000000 (0000ms, 0835ms total)
T2C24 001:693 JLINK_WriteMem(0x20000164, 0x0400 Bytes, ...) - Data: 0B F5 B4 70 0F FA 80 FB BB F1 B4 0F 03 DB AB F5 ... -- CPU_WriteMem(1024 bytes @ 0x20000164)  returns 0x400 (0012ms, 0847ms total)
T2C24 001:705 JLINK_WriteReg(R0, 0x08001800)  returns 0x00 (0000ms, 0847ms total)
T2C24 001:705 JLINK_WriteReg(R1, 0x00000400)  returns 0x00 (0001ms, 0848ms total)
T2C24 001:706 JLINK_WriteReg(R2, 0x20000164)  returns 0x00 (0000ms, 0848ms total)
T2C24 001:706 JLINK_WriteReg(R3, 0x00000000)  returns 0x00 (0000ms, 0848ms total)
T2C24 001:706 JLINK_WriteReg(R4, 0x00000000)  returns 0x00 (0000ms, 0848ms total)
T2C24 001:706 JLINK_WriteReg(R5, 0x00000000)  returns 0x00 (0000ms, 0848ms total)
T2C24 001:706 JLINK_WriteReg(R6, 0x00000000)  returns 0x00 (0000ms, 0848ms total)
T2C24 001:706 JLINK_WriteReg(R7, 0x00000000)  returns 0x00 (0000ms, 0848ms total)
T2C24 001:706 JLINK_WriteReg(R8, 0x00000000)  returns 0x00 (0000ms, 0848ms total)
T2C24 001:706 JLINK_WriteReg(R9, 0x20000160)  returns 0x00 (0000ms, 0848ms total)
T2C24 001:706 JLINK_WriteReg(R10, 0x00000000)  returns 0x00 (0000ms, 0848ms total)
T2C24 001:706 JLINK_WriteReg(R11, 0x00000000)  returns 0x00 (0000ms, 0848ms total)
T2C24 001:706 JLINK_WriteReg(R12, 0x00000000)  returns 0x00 (0000ms, 0848ms total)
T2C24 001:706 JLINK_WriteReg(R13 (SP), 0x20000800)  returns 0x00 (0000ms, 0848ms total)
T2C24 001:706 JLINK_WriteReg(R14, 0x20000001)  returns 0x00 (0000ms, 0848ms total)
T2C24 001:706 JLINK_WriteReg(R15 (PC), 0x200000F4)  returns 0x00 (0000ms, 0848ms total)
T2C24 001:706 JLINK_WriteReg(XPSR, 0x01000000)  returns 0x00 (0000ms, 0848ms total)
T2C24 001:706 JLINK_WriteReg(MSP, 0x20000800)  returns 0x00 (0000ms, 0848ms total)
T2C24 001:706 JLINK_WriteReg(PSP, 0x20000800)  returns 0x00 (0000ms, 0848ms total)
T2C24 001:706 JLINK_WriteReg(CFBP, 0x00000000)  returns 0x00 (0000ms, 0848ms total)
T2C24 001:706 JLINK_SetBPEx(Addr = 0x20000000, Type = 0xFFFFFFF2)  returns 0x0000000B (0000ms, 0848ms total)
T2C24 001:706 JLINK_Go() (0003ms, 0851ms total)
T2C24 001:709 JLINK_IsHalted()  returns FALSE (0000ms, 0851ms total)
T2C24 001:737 JLINK_IsHalted()  returns FALSE (0000ms, 0851ms total)
T2C24 001:738 JLINK_IsHalted()  returns FALSE (0000ms, 0851ms total)
T2C24 001:739 JLINK_IsHalted()  returns FALSE (0000ms, 0851ms total)
T2C24 001:740 JLINK_IsHalted() -- CPU_ReadMem(2 bytes @ 0x20000000)  returns TRUE (0004ms, 0855ms total)
T2C24 001:744 JLINK_ReadReg(R15 (PC))  returns 0x20000000 (0000ms, 0851ms total)
T2C24 001:744 JLINK_ClrBPEx(BPHandle = 0x0000000B)  returns 0x00 (0000ms, 0851ms total)
T2C24 001:744 JLINK_ReadReg(R0)  returns 0x00000000 (0000ms, 0851ms total)
T2C24 001:745 JLINK_WriteMem(0x20000164, 0x0400 Bytes, ...) - Data: EF F8 06 46 05 F0 B0 FE 84 21 08 51 0E B0 BD E8 ... -- CPU_WriteMem(1024 bytes @ 0x20000164)  returns 0x400 (0012ms, 0863ms total)
T2C24 001:757 JLINK_WriteReg(R0, 0x08001C00)  returns 0x00 (0000ms, 0863ms total)
T2C24 001:757 JLINK_WriteReg(R1, 0x00000400)  returns 0x00 (0000ms, 0863ms total)
T2C24 001:757 JLINK_WriteReg(R2, 0x20000164)  returns 0x00 (0001ms, 0864ms total)
T2C24 001:758 JLINK_WriteReg(R3, 0x00000000)  returns 0x00 (0000ms, 0864ms total)
T2C24 001:758 JLINK_WriteReg(R4, 0x00000000)  returns 0x00 (0000ms, 0864ms total)
T2C24 001:758 JLINK_WriteReg(R5, 0x00000000)  returns 0x00 (0000ms, 0864ms total)
T2C24 001:758 JLINK_WriteReg(R6, 0x00000000)  returns 0x00 (0000ms, 0864ms total)
T2C24 001:758 JLINK_WriteReg(R7, 0x00000000)  returns 0x00 (0000ms, 0864ms total)
T2C24 001:758 JLINK_WriteReg(R8, 0x00000000)  returns 0x00 (0000ms, 0864ms total)
T2C24 001:758 JLINK_WriteReg(R9, 0x20000160)  returns 0x00 (0000ms, 0864ms total)
T2C24 001:758 JLINK_WriteReg(R10, 0x00000000)  returns 0x00 (0000ms, 0864ms total)
T2C24 001:758 JLINK_WriteReg(R11, 0x00000000)  returns 0x00 (0000ms, 0864ms total)
T2C24 001:758 JLINK_WriteReg(R12, 0x00000000)  returns 0x00 (0000ms, 0864ms total)
T2C24 001:758 JLINK_WriteReg(R13 (SP), 0x20000800)  returns 0x00 (0000ms, 0864ms total)
T2C24 001:758 JLINK_WriteReg(R14, 0x20000001)  returns 0x00 (0000ms, 0864ms total)
T2C24 001:758 JLINK_WriteReg(R15 (PC), 0x200000F4)  returns 0x00 (0000ms, 0864ms total)
T2C24 001:758 JLINK_WriteReg(XPSR, 0x01000000)  returns 0x00 (0000ms, 0864ms total)
T2C24 001:758 JLINK_WriteReg(MSP, 0x20000800)  returns 0x00 (0000ms, 0864ms total)
T2C24 001:758 JLINK_WriteReg(PSP, 0x20000800)  returns 0x00 (0000ms, 0864ms total)
T2C24 001:758 JLINK_WriteReg(CFBP, 0x00000000)  returns 0x00 (0000ms, 0864ms total)
T2C24 001:758 JLINK_SetBPEx(Addr = 0x20000000, Type = 0xFFFFFFF2)  returns 0x0000000C (0000ms, 0864ms total)
T2C24 001:758 JLINK_Go() (0003ms, 0867ms total)
T2C24 001:761 JLINK_IsHalted()  returns FALSE (0000ms, 0867ms total)
T2C24 001:762 JLINK_IsHalted()  returns FALSE (0000ms, 0867ms total)
T2C24 001:763 JLINK_IsHalted()  returns FALSE (0000ms, 0867ms total)
T2C24 001:764 JLINK_IsHalted()  returns FALSE (0001ms, 0868ms total)
T2C24 001:767 JLINK_IsHalted()  returns FALSE (0001ms, 0868ms total)
T2C24 001:769 JLINK_IsHalted()  returns FALSE (0001ms, 0868ms total)
T2C24 001:771 JLINK_IsHalted()  returns FALSE (0000ms, 0867ms total)
T2C24 001:772 JLINK_IsHalted()  returns FALSE (0000ms, 0867ms total)
T2C24 001:775 JLINK_IsHalted()  returns FALSE (0000ms, 0867ms total)
T2C24 001:776 JLINK_IsHalted()  returns FALSE (0000ms, 0867ms total)
T2C24 001:777 JLINK_IsHalted()  returns FALSE (0000ms, 0867ms total)
T2C24 001:778 JLINK_IsHalted()  returns FALSE (0000ms, 0867ms total)
T2C24 001:779 JLINK_IsHalted()  returns FALSE (0001ms, 0868ms total)
T2C24 001:786 JLINK_IsHalted()  returns FALSE (0001ms, 0868ms total)
T2C24 001:788 JLINK_IsHalted()  returns FALSE (0001ms, 0868ms total)
T2C24 001:791 JLINK_IsHalted()  returns FALSE (0000ms, 0867ms total)
T2C24 001:792 JLINK_IsHalted() -- CPU_ReadMem(2 bytes @ 0x20000000)  returns TRUE (0004ms, 0871ms total)
T2C24 001:796 JLINK_ReadReg(R15 (PC))  returns 0x20000000 (0000ms, 0867ms total)
T2C24 001:796 JLINK_ClrBPEx(BPHandle = 0x0000000C)  returns 0x00 (0000ms, 0867ms total)
T2C24 001:796 JLINK_ReadReg(R0)  returns 0x00000000 (0000ms, 0867ms total)
T2C24 001:798 JLINK_WriteMem(0x20000164, 0x0400 Bytes, ...) - Data: 04 46 25 49 08 88 69 46 01 F0 25 FD BD F8 00 00 ... -- CPU_WriteMem(1024 bytes @ 0x20000164)  returns 0x400 (0013ms, 0880ms total)
T2C24 001:811 JLINK_WriteReg(R0, 0x08002000)  returns 0x00 (0000ms, 0880ms total)
T2C24 001:811 JLINK_WriteReg(R1, 0x00000400)  returns 0x00 (0000ms, 0880ms total)
T2C24 001:811 JLINK_WriteReg(R2, 0x20000164)  returns 0x00 (0000ms, 0880ms total)
T2C24 001:811 JLINK_WriteReg(R3, 0x00000000)  returns 0x00 (0000ms, 0880ms total)
T2C24 001:811 JLINK_WriteReg(R4, 0x00000000)  returns 0x00 (0000ms, 0880ms total)
T2C24 001:811 JLINK_WriteReg(R5, 0x00000000)  returns 0x00 (0000ms, 0880ms total)
T2C24 001:811 JLINK_WriteReg(R6, 0x00000000)  returns 0x00 (0000ms, 0880ms total)
T2C24 001:811 JLINK_WriteReg(R7, 0x00000000)  returns 0x00 (0000ms, 0880ms total)
T2C24 001:811 JLINK_WriteReg(R8, 0x00000000)  returns 0x00 (0000ms, 0880ms total)
T2C24 001:811 JLINK_WriteReg(R9, 0x20000160)  returns 0x00 (0000ms, 0880ms total)
T2C24 001:811 JLINK_WriteReg(R10, 0x00000000)  returns 0x00 (0000ms, 0880ms total)
T2C24 001:811 JLINK_WriteReg(R11, 0x00000000)  returns 0x00 (0000ms, 0880ms total)
T2C24 001:811 JLINK_WriteReg(R12, 0x00000000)  returns 0x00 (0000ms, 0880ms total)
T2C24 001:811 JLINK_WriteReg(R13 (SP), 0x20000800)  returns 0x00 (0000ms, 0880ms total)
T2C24 001:811 JLINK_WriteReg(R14, 0x20000001)  returns 0x00 (0000ms, 0880ms total)
T2C24 001:811 JLINK_WriteReg(R15 (PC), 0x200000F4)  returns 0x00 (0000ms, 0880ms total)
T2C24 001:811 JLINK_WriteReg(XPSR, 0x01000000)  returns 0x00 (0000ms, 0880ms total)
T2C24 001:811 JLINK_WriteReg(MSP, 0x20000800)  returns 0x00 (0001ms, 0881ms total)
T2C24 001:812 JLINK_WriteReg(PSP, 0x20000800)  returns 0x00 (0000ms, 0881ms total)
T2C24 001:812 JLINK_WriteReg(CFBP, 0x00000000)  returns 0x00 (0000ms, 0881ms total)
T2C24 001:812 JLINK_SetBPEx(Addr = 0x20000000, Type = 0xFFFFFFF2)  returns 0x0000000D (0000ms, 0881ms total)
T2C24 001:812 JLINK_Go() (0002ms, 0883ms total)
T2C24 001:814 JLINK_IsHalted()  returns FALSE (0001ms, 0884ms total)
T2C24 001:838 JLINK_IsHalted()  returns FALSE (0000ms, 0883ms total)
T2C24 001:839 JLINK_IsHalted()  returns FALSE (0000ms, 0883ms total)
T2C24 001:840 JLINK_IsHalted()  returns FALSE (0000ms, 0883ms total)
T2C24 001:842 JLINK_IsHalted()  returns FALSE (0000ms, 0883ms total)
T2C24 001:843 JLINK_IsHalted()  returns FALSE (0000ms, 0883ms total)
T2C24 001:845 JLINK_IsHalted() -- CPU_ReadMem(2 bytes @ 0x20000000)  returns TRUE (0004ms, 0887ms total)
T2C24 001:849 JLINK_ReadReg(R15 (PC))  returns 0x20000000 (0000ms, 0883ms total)
T2C24 001:849 JLINK_ClrBPEx(BPHandle = 0x0000000D)  returns 0x00 (0000ms, 0883ms total)
T2C24 001:849 JLINK_ReadReg(R0)  returns 0x00000000 (0000ms, 0883ms total)
T2C24 001:850 JLINK_WriteMem(0x20000164, 0x0400 Bytes, ...) - Data: D4 E9 00 01 05 F0 2C FB 80 46 39 46 05 F0 76 F9 ... -- CPU_WriteMem(1024 bytes @ 0x20000164)  returns 0x400 (0013ms, 0896ms total)
T2C24 001:863 JLINK_WriteReg(R0, 0x08002400)  returns 0x00 (0000ms, 0896ms total)
T2C24 001:863 JLINK_WriteReg(R1, 0x00000400)  returns 0x00 (0000ms, 0896ms total)
T2C24 001:863 JLINK_WriteReg(R2, 0x20000164)  returns 0x00 (0000ms, 0896ms total)
T2C24 001:863 JLINK_WriteReg(R3, 0x00000000)  returns 0x00 (0000ms, 0896ms total)
T2C24 001:863 JLINK_WriteReg(R4, 0x00000000)  returns 0x00 (0000ms, 0896ms total)
T2C24 001:863 JLINK_WriteReg(R5, 0x00000000)  returns 0x00 (0000ms, 0896ms total)
T2C24 001:863 JLINK_WriteReg(R6, 0x00000000)  returns 0x00 (0000ms, 0896ms total)
T2C24 001:863 JLINK_WriteReg(R7, 0x00000000)  returns 0x00 (0000ms, 0896ms total)
T2C24 001:863 JLINK_WriteReg(R8, 0x00000000)  returns 0x00 (0000ms, 0896ms total)
T2C24 001:863 JLINK_WriteReg(R9, 0x20000160)  returns 0x00 (0000ms, 0896ms total)
T2C24 001:863 JLINK_WriteReg(R10, 0x00000000)  returns 0x00 (0000ms, 0896ms total)
T2C24 001:863 JLINK_WriteReg(R11, 0x00000000)  returns 0x00 (0000ms, 0896ms total)
T2C24 001:863 JLINK_WriteReg(R12, 0x00000000)  returns 0x00 (0000ms, 0896ms total)
T2C24 001:863 JLINK_WriteReg(R13 (SP), 0x20000800)  returns 0x00 (0000ms, 0896ms total)
T2C24 001:863 JLINK_WriteReg(R14, 0x20000001)  returns 0x00 (0000ms, 0896ms total)
T2C24 001:863 JLINK_WriteReg(R15 (PC), 0x200000F4)  returns 0x00 (0000ms, 0896ms total)
T2C24 001:863 JLINK_WriteReg(XPSR, 0x01000000)  returns 0x00 (0000ms, 0896ms total)
T2C24 001:863 JLINK_WriteReg(MSP, 0x20000800)  returns 0x00 (0000ms, 0896ms total)
T2C24 001:863 JLINK_WriteReg(PSP, 0x20000800)  returns 0x00 (0000ms, 0896ms total)
T2C24 001:863 JLINK_WriteReg(CFBP, 0x00000000)  returns 0x00 (0000ms, 0896ms total)
T2C24 001:863 JLINK_SetBPEx(Addr = 0x20000000, Type = 0xFFFFFFF2)  returns 0x0000000E (0000ms, 0896ms total)
T2C24 001:863 JLINK_Go() (0003ms, 0899ms total)
T2C24 001:866 JLINK_IsHalted()  returns FALSE (0001ms, 0900ms total)
T2C24 001:868 JLINK_IsHalted()  returns FALSE (0000ms, 0899ms total)
T2C24 001:869 JLINK_IsHalted()  returns FALSE (0000ms, 0899ms total)
T2C24 001:870 JLINK_IsHalted()  returns FALSE (0000ms, 0899ms total)
T2C24 001:871 JLINK_IsHalted()  returns FALSE (0000ms, 0899ms total)
T2C24 001:872 JLINK_IsHalted()  returns FALSE (0000ms, 0899ms total)
T2C24 001:873 JLINK_IsHalted()  returns FALSE (0000ms, 0899ms total)
T2C24 001:874 JLINK_IsHalted()  returns FALSE (0000ms, 0899ms total)
T2C24 001:875 JLINK_IsHalted()  returns FALSE (0001ms, 0900ms total)
T2C24 001:877 JLINK_IsHalted()  returns FALSE (0000ms, 0899ms total)
T2C24 001:878 JLINK_IsHalted()  returns FALSE (0000ms, 0899ms total)
T2C24 001:879 JLINK_IsHalted()  returns FALSE (0000ms, 0899ms total)
T2C24 001:880 JLINK_IsHalted()  returns FALSE (0000ms, 0899ms total)
T2C24 001:881 JLINK_IsHalted()  returns FALSE (0000ms, 0899ms total)
T2C24 001:882 JLINK_IsHalted()  returns FALSE (0000ms, 0899ms total)
T2C24 001:883 JLINK_IsHalted()  returns FALSE (0000ms, 0899ms total)
T2C24 001:884 JLINK_IsHalted()  returns FALSE (0000ms, 0899ms total)
T2C24 001:885 JLINK_IsHalted()  returns FALSE (0000ms, 0899ms total)
T2C24 001:886 JLINK_IsHalted()  returns FALSE (0001ms, 0900ms total)
T2C24 001:888 JLINK_IsHalted()  returns FALSE (0000ms, 0899ms total)
T2C24 001:889 JLINK_IsHalted()  returns FALSE (0001ms, 0900ms total)
T2C24 001:891 JLINK_IsHalted()  returns FALSE (0000ms, 0899ms total)
T2C24 001:892 JLINK_IsHalted()  returns FALSE (0000ms, 0899ms total)
